---
tags: #AMBA #AXI #协议
---

# AXI4-Lite 协议 （Advanced eXtensible Interface）

AXI4-Lite 是 ARM 定义的 AMBA 总线协议之一。这套协议规定了一套标准的信号和时序规则，让芯片内部的主设备（如 CPU）和从设备（如 SPI 控制器）之间可以有序地交换数据。

总线需要满足四个基本功能才能成为可靠性高、性能好的系统总线：第一，要有时钟和复位；第二，要可以寻址，因为这是一个地址映射协议（memory-mapped protocol）；第三，要能实现读写数据；第四，要能保证数据的安全传输。AXI4-Lite 的设计围绕这四个需求展开。

## 时钟与复位

任何同步总线都需要两个最基本的信号。时钟信号为所有模块提供统一的节拍，确保数据在确定的时刻被采样。复位信号让总线上的所有模块在启动时回到一个已知的初始状态。在 AXI4-Lite 中，这两个信号分别是 ACLK 和 ARESETN。ARESETN 中的 N 表示低电平有效，即复位信号为低时总线进入复位状态，此时所有的 VALID 和 READY 信号必须被清零。

有了时钟和复位，总线有了运行的基础条件。接下来要考虑的是总线最核心的使命：传输数据。

## 地址与数据

总线完成一次传输需要两样东西：告诉从机操作哪一个位置（地址），以及要写入的内容或者期望读出的内容（数据）。因此地址信号和数据信号是所有总线最基本的一组信号。

在 AXI4-Lite 中，地址信号和数据信号是分离的。写操作使用 AWADDR 携带写地址，WDATA 携带写数据。读操作使用 ARADDR 携带读地址，RDATA 携带读数据。

如果总线只定义地址和数据信号，主机把地址和数据放到线上后并不知道从机有没有收到，从机也不知道主机是否已经把数据放稳。双方需要一种沟通机制来协调每个传输的起止，这就是握手。

## VALID-READY 握手

每一笔传输都涉及两个方向。发送方将数据准备好后拉高 VALID 信号，表示"数据已经在线上了"。接收方准备好接收后拉高 READY 信号，表示"我可以接收了"。当 VALID 和 READY 同时为高时，传输在同一个时钟周期内完成。

握手过程可以衍生出三种时序情况。第一种，发送方先拉高 VALID，接收方尚未准备好，READY 为低，此时传输等待，直到接收方拉高 READY 后两者同时为高才完成。第二种，接收方提前将 READY 拉高，等待发送方给出数据，当发送方拉高 VALID 时传输立刻完成。第三种，双方在同一拍同时将 VALID 和 READY 拉高，传输在一个周期内立即完成。

VALID 信号有一个重要的规则：一旦拉高，在对应的 READY 到达之前不能撤销。这是因为接收方可能正在处理其他事务，它假设 VALID 拉高后数据会稳定保持，等待它来接收。如果发送方中途撤销 VALID，协议认为这是违规行为。

## 写事务的三个通道

写操作需要三个步骤：告诉从机写到哪里（地址）、告诉从机写入什么（数据）、从机告诉主机写入是否成功（响应）。AXI4-Lite 将这三个步骤分离为三个独立的通道。

写地址通道（AW 通道）包含 AWADDR、AWVALID 和 AWREADY。主机将目标地址放到 AWADDR 上，拉高 AWVALID，从机通过 AWREADY 表示可以接收地址。

写数据通道（W 通道）包含 WDATA、WSTRB（Write Strobe，字节选通）、WVALID 和 WREADY。主机将数据放到 WDATA 上，同时通过 WSTRB 指示哪些字节是有效的（因为 32bit 总线可以只写入 1 个或 2 个字节）。WVALID 和 WREADY 的握手控制数据的传输。

写响应通道（B 通道）包含 BRESP（Write Response，写响应）、BVALID 和 BREADY。从机完成写入后，通过 BVALID 通知主机写入结果，主机通过 BREADY 表示收到。BRESP 的取值如下。

| BRESP 值 | 名称     | 含义                                         |
| ------- | ------ | ------------------------------------------ |
| 2'b00   | OKAY   | 操作正常完成                                     |
| 2'b01   | EXOKAY | 独占访问成功（只在 AXI4-Full 中使用，AXI4-Lite 不支持独占访问） |
| 2'b10   | SLVERR | 从机错误，例如写入一个只读寄存器                           |
| 2'b11   | DECERR | 解码错误，总线上没有设备认领这个地址                         |

将写操作拆成三个独立的通道，意味着地址、数据和响应可以在时间上错开，互不阻塞。例如地址可以在数据之前先传过去，或者两者同时传。

## 读事务的两个通道

读操作只需要两个步骤：告诉从机读哪个地址（地址），从机返回该地址的数据（数据）。因此读操作只有两个通道。

读地址通道（AR 通道）包含 ARADDR、ARVALID 和 ARREADY，工作方式与写地址通道完全对称。

读数据通道（R 通道）包含 RDATA、RRESP、RVALID 和 RREADY。从机将读出的数据放到 RDATA 上，拉高 RVALID，主机通过 RREADY 表示接收。RRESP 与 BRESP 一样返回操作结果，取值相同。

读操作的过程只有一种顺序——不可能在没有地址的情况下就返回数据。这一点与写操作不同，写操作有地址先到、数据先到或同时到达三种可能性。

##  CSR （Control and Status Register 控制状态寄存器）or 配置寄存器组

这个 DUT 是一个 AXI-to-SPI Bridge，它内部所有寄存器的功能都围绕着 SPI 工作参数展开。CPU 原生支持 AXI 协议，不需要额外的协议翻译就能发起总线事务，但 AXI 只负责运输数据，不负责理解数据的语义。寄存器层承担了语义转换的角色：AXI 接口将 CPU 发来的地址和数据正确接收后，寄存器层将其翻译成 SPI master 需要的具体配置（如 CPOL/CPHA 模式、时钟分频、帧间隙时序等）。每个寄存器有独立的地址和功能——有的控制 SPI 启动（slv_reg0），有的查询忙状态（slv_reg1），有的发送数据（slv_reg8），有的接收数据（slv_reg9）。寄存器层还提供了频率适配的缓冲作用：CPU 在 GHz 级别完成写入后可以立刻处理其他事务，SPI 在 MHz 级别逐 bit 串行移位由 SPI master 独立完成。

AXI4-Lite 按字节地址寻址。这个 DUT 的地址总线宽度是 6bit（有六根线），最多可以寻址 64 字节（$2^6$）。

补充：两根线，一共产生四个地址：00、01、10、11；
在CPU 设计里约定好了：每个地址对应 8 bit（1 字节）。Intel 8086、ARM、RISC-V……全世界的 CPU 都认这个标准。这个约定从 1960 年代的 IBM System/360 开始，一直延续到现在。
所以6根线能产生（$2^6$）64个地址，等于寻址64字节。

数据总线宽度是 32bit（4 字节），意味着每次传输读取或写入 4 字节。
所以RTL中定义的寄存器组（存储数据）是4字节宽度，1地址访问1字节。
所以
```
slv_reg0 → 占了地址 0、1、2、3
slv_reg1 → 占了地址 4、5、6、7
slv_reg2 → 占了地址 8、9、10、11
```
这就要求cpu的读写地址必须是0、4、8，4的倍数，表示成二进制就是最低两位是0。

RTL 中通过两个参数实现这个映射：ADDR_LSB 设为 2，表示跳过最低的 2 个字节地址位；OPT_MEM_ADDR_BITS 设为 3，表示用 3bit 来选择 8 个 32bit 寄存器。（译码器）

一共需要 8 个寄存器，地址分配如下。

| 地址   | 寄存器      | 属性  | 功能             |
| ---- | -------- | --- | -------------- |
| 0x00 | slv_reg0 | 可读写 | SPI 控制和状态      |
| 0x04 | slv_reg1 | 可读写 | SPI 时钟分频配置     |
| 0x08 | slv_reg2 | 可读写 | CPOL/CPHA 模式配置 |
| 0x0C | slv_reg3 | 可读写 | SPI 控制续        |
| 0x10 | slv_reg4 | 可读写 | SPI 控制续        |
| 0x14 | slv_reg5 | 可读写 | 帧间隙配置          |
| 0x18 | slv_reg6 | 可读写 | CS 到 SCK 时序配置  |
| 0x1C | slv_reg7 | 可读写 | SCK 到 CS 时序配置  |
| 0x20 | slv_reg8 | 可读写 | MOSI 发送数据      |
| 0x24 | slv_reg9 | 只读  | MISO 接收数据      |

地址 0x24（slv_reg9）是只读的，如果主机尝试写入这个地址，DUT 应当通过 BRESP 返回 SLVERR 而不是 OKAY。

## 验证工程师需要关注的检查点

握手覆盖方面，验证环境应当产生三种握手时序来验证从设备的响应是否正确。写操作还需要验证 WSTRB 字节选通信号的各种取值：全 4 字节写入、仅写最低 1 字节、仅写高 2 字节等不同组合，确认只有被 WSTRB 选中的字节真正写入寄存器。读写并发方面，AXI4-Lite 的五通道是独立的，验证应当覆盖读和写同时发起的情形。复位行为的验证重点是复位后所有 VALID 和 READY 回归零，从设备进入 idle 状态，不响应任何未完成的事务。
